time	-I(Ls1)	-I(Ls2)
0.000000000000000e+000	-0.000000e+000	-0.000000e+000
1.170285695298015e-014	9.073044e-008	-9.073044e-008
2.340571390596030e-014	1.827705e-007	-1.827705e-007
3.510857085894045e-014	2.761200e-007	-2.761200e-007
4.681142781192060e-014	3.707792e-007	-3.707792e-007
5.851428476490076e-014	4.667479e-007	-4.667479e-007
7.021714171788090e-014	5.640262e-007	-5.640262e-007
8.191999867086103e-014	6.626141e-007	-6.626141e-007
1.638399973417221e-013	1.389396e-006	-1.389396e-006
3.276799946834441e-013	3.035377e-006	-3.035377e-006
6.553599893668882e-013	7.095802e-006	-7.095802e-006
1.310719978733776e-012	1.789271e-005	-1.789271e-005
2.310719978733776e-012	4.001254e-005	-4.001254e-005
3.310719978733776e-012	6.899757e-005	-6.899757e-005
4.310719978733776e-012	1.054179e-004	-1.054179e-004
5.310719978733776e-012	1.491718e-004	-1.491718e-004
6.310719978733775e-012	2.001420e-004	-2.001420e-004
7.310719978733775e-012	2.581960e-004	-2.581960e-004
8.310719978733775e-012	3.231861e-004	-3.231861e-004
9.310719978733775e-012	3.949503e-004	-3.949503e-004
1.031071997873377e-011	4.733120e-004	-4.733120e-004
1.131071997873377e-011	5.580809e-004	-5.580809e-004
1.231071997873377e-011	6.490531e-004	-6.490531e-004
1.331071997873377e-011	7.460118e-004	-7.460117e-004
1.431071997873377e-011	8.487275e-004	-8.487274e-004
1.531071997873377e-011	9.569586e-004	-9.569583e-004
1.631071997873377e-011	1.070452e-003	-1.070452e-003
1.731071997873377e-011	1.188943e-003	-1.188943e-003
1.831071997873377e-011	1.312158e-003	-1.312157e-003
1.931071997873377e-011	1.439812e-003	-1.439810e-003
2.031071997873377e-011	1.571610e-003	-1.571608e-003
2.131071997873377e-011	1.707250e-003	-1.707247e-003
2.231071997873377e-011	1.846421e-003	-1.846417e-003
2.331071997873377e-011	1.988805e-003	-1.988799e-003
2.431071997873377e-011	2.134077e-003	-2.134067e-003
2.531071997873377e-011	2.281905e-003	-2.281892e-003
2.631071997873377e-011	2.431953e-003	-2.431934e-003
2.731071997873377e-011	2.583880e-003	-2.583853e-003
2.831071997873377e-011	2.737340e-003	-2.737302e-003
2.931071997873377e-011	2.891985e-003	-2.891931e-003
3.031071997873377e-011	3.047466e-003	-3.047389e-003
3.131071997873378e-011	3.203431e-003	-3.203320e-003
3.231071997873378e-011	3.359532e-003	-3.359369e-003
3.331071997873378e-011	3.515421e-003	-3.515179e-003
3.431071997873379e-011	3.670760e-003	-3.670395e-003
3.531071997873379e-011	3.825224e-003	-3.824661e-003
3.631071997873379e-011	3.978507e-003	-3.977624e-003
3.731071997873379e-011	4.130348e-003	-4.128936e-003
3.831071997873380e-011	4.280569e-003	-4.278251e-003
3.931071997873380e-011	4.429137e-003	-4.425234e-003
4.031071997873380e-011	4.576198e-003	-4.569559e-003
4.131071997873381e-011	4.722162e-003	-4.710916e-003
4.231071997873381e-011	4.867756e-003	-4.849016e-003
4.331071997873381e-011	5.013970e-003	-4.983589e-003
4.431071997873382e-011	5.161886e-003	-5.114392e-003
4.531071997873382e-011	5.312427e-003	-5.241201e-003
4.631071997873382e-011	5.466247e-003	-5.363806e-003
4.731071997873382e-011	5.623768e-003	-5.482013e-003
4.831071997873383e-011	5.785170e-003	-5.595637e-003
4.931071997873383e-011	5.950422e-003	-5.704502e-003
5.031071997873383e-011	6.119404e-003	-5.808441e-003
5.131071997873384e-011	6.291955e-003	-5.907292e-003
5.231071997873384e-011	6.467895e-003	-6.000908e-003
5.331071997873384e-011	6.647035e-003	-6.089143e-003
5.431071997873385e-011	6.829183e-003	-6.171866e-003
5.531071997873385e-011	7.014143e-003	-6.248951e-003
5.631071997873385e-011	7.201721e-003	-6.320282e-003
5.731071997873385e-011	7.391722e-003	-6.385752e-003
5.831071997873385e-011	7.583953e-003	-6.445264e-003
5.931071997873385e-011	7.778221e-003	-6.498730e-003
6.031071997873384e-011	7.974334e-003	-6.546070e-003
6.231071997873384e-011	8.371335e-003	-6.622103e-003
6.431071997873383e-011	8.773442e-003	-6.672917e-003
6.631071997873382e-011	9.179169e-003	-6.698218e-003
6.831071997873382e-011	9.587052e-003	-6.697858e-003
7.131071997873381e-011	1.019979e-002	-6.649243e-003
7.431071997873380e-011	1.080944e-002	-6.543527e-003
7.731071997873379e-011	1.141149e-002	-6.382011e-003
8.031071997873378e-011	1.200161e-002	-6.166649e-003
8.331071997873377e-011	1.257570e-002	-5.900008e-003
8.631071997873375e-011	1.312990e-002	-5.585205e-003
8.931071997873374e-011	1.366059e-002	-5.225849e-003
9.173929140730516e-011	1.407403e-002	-4.898643e-003
9.416786283587658e-011	1.446476e-002	-4.553544e-003
9.659643426444801e-011	1.483278e-002	-4.190552e-003
9.902500569301943e-011	1.517809e-002	-3.809667e-003
1.014535771215908e-010	1.550069e-002	-3.410890e-003
1.038821485501623e-010	1.580059e-002	-2.994220e-003
1.063107199787337e-010	1.607778e-002	-2.559658e-003
1.078821485501623e-010	1.624145e-002	-2.276220e-003
1.094535771215908e-010	1.639331e-002	-1.991675e-003
1.110250056930194e-010	1.653333e-002	-1.706022e-003
1.125964342644480e-010	1.666153e-002	-1.419262e-003
1.141678628358765e-010	1.677791e-002	-1.131395e-003
1.157392914073051e-010	1.688245e-002	-8.424202e-004
1.173107199787337e-010	1.697517e-002	-5.523383e-004
1.193107199787337e-010	1.707484e-002	-1.872306e-004
1.203107199787337e-010	1.711713e-002	-5.841354e-006
1.213107199787337e-010	1.715436e-002	1.745628e-004
1.233107199787336e-010	1.721358e-002	5.318134e-004
1.263107199787336e-010	1.726412e-002	1.056645e-003
1.293107199787336e-010	1.726855e-002	1.565028e-003
1.323107199787336e-010	1.722684e-002	2.053721e-003
1.338821485501622e-010	1.718647e-002	2.301568e-003
1.354535771215907e-010	1.713366e-002	2.542148e-003
1.370250056930193e-010	1.706842e-002	2.775461e-003
1.385964342644479e-010	1.699074e-002	3.001506e-003
1.401678628358764e-010	1.690062e-002	3.220283e-003
1.417392914073050e-010	1.679808e-002	3.431793e-003
1.433107199787336e-010	1.668309e-002	3.636036e-003
1.457392914073050e-010	1.648066e-002	3.934933e-003
1.481678628358764e-010	1.625066e-002	4.214081e-003
1.505964342644478e-010	1.599311e-002	4.473481e-003
1.530250056930193e-010	1.570801e-002	4.713132e-003
1.554535771215907e-010	1.539535e-002	4.933034e-003
1.578821485501621e-010	1.505513e-002	5.133188e-003
1.603107199787335e-010	1.468736e-002	5.313593e-003
1.624535771215907e-010	1.434146e-002	5.456037e-003
1.645964342644478e-010	1.397681e-002	5.585723e-003
1.667392914073049e-010	1.359342e-002	5.702652e-003
1.688821485501621e-010	1.319128e-002	5.806824e-003
1.710250056930192e-010	1.277039e-002	5.898239e-003
1.731678628358763e-010	1.233075e-002	5.976896e-003
1.753107199787335e-010	1.187237e-002	6.042796e-003
1.763107199787335e-010	1.165297e-002	6.070665e-003
1.773107199787335e-010	1.142984e-002	6.096337e-003
1.783107199787335e-010	1.120303e-002	6.119888e-003
1.793107199787335e-010	1.097257e-002	6.141393e-003
1.803107199787334e-010	1.073852e-002	6.160931e-003
1.813107199787334e-010	1.050092e-002	6.178576e-003
1.823107199787334e-010	1.025981e-002	6.194409e-003
1.843107199787334e-010	9.767262e-003	6.220941e-003
1.853107199787334e-010	9.515915e-003	6.231796e-003
1.863107199787334e-010	9.261249e-003	6.241143e-003
1.873107199787334e-010	9.003314e-003	6.249060e-003
1.883107199787334e-010	8.742160e-003	6.255622e-003
1.893107199787334e-010	8.477837e-003	6.260900e-003
1.903107199787334e-010	8.210396e-003	6.264970e-003
1.913107199787334e-010	7.939890e-003	6.267902e-003
1.923107199787334e-010	7.666374e-003	6.269766e-003
1.933107199787334e-010	7.389901e-003	6.270632e-003
1.943107199787334e-010	7.110528e-003	6.270565e-003
1.953107199787334e-010	6.828313e-003	6.269632e-003
1.963107199787334e-010	6.543316e-003	6.267895e-003
1.973107199787334e-010	6.255599e-003	6.265417e-003
1.983107199787334e-010	5.965224e-003	6.262257e-003
1.993107199787334e-010	5.672257e-003	6.258471e-003
2.003107199787334e-010	5.376767e-003	6.254114e-003
2.013107199787334e-010	5.078825e-003	6.249240e-003
2.023107199787334e-010	4.778504e-003	6.243896e-003
2.033107199787334e-010	4.475883e-003	6.238131e-003
2.043107199787334e-010	4.171042e-003	6.231990e-003
2.053107199787334e-010	3.864068e-003	6.225513e-003
2.063107199787334e-010	3.555050e-003	6.218739e-003
2.073107199787334e-010	3.244086e-003	6.211705e-003
2.083107199787334e-010	2.931277e-003	6.204442e-003
2.093107199787333e-010	2.616734e-003	6.196980e-003
2.103107199787333e-010	2.300573e-003	6.189345e-003
2.113107199787333e-010	1.982923e-003	6.181559e-003
2.123107199787333e-010	1.663921e-003	6.173641e-003
2.133107199787333e-010	1.343718e-003	6.165607e-003
2.143107199787333e-010	1.022478e-003	6.157467e-003
2.153107199787333e-010	7.003815e-004	6.149229e-003
2.163107199787333e-010	3.776280e-004	6.140896e-003
2.173107199787333e-010	5.443763e-005	6.132467e-003
2.183107199787333e-010	-2.689457e-004	6.123935e-003
2.193107199787333e-010	-5.922516e-004	6.115292e-003
2.203107199787333e-010	-9.151811e-004	6.106522e-003
2.213107199787333e-010	-1.237404e-003	6.097610e-003
2.223107199787333e-010	-1.558545e-003	6.088542e-003
2.233107199787333e-010	-1.878188e-003	6.079319e-003
2.243107199787333e-010	-2.195909e-003	6.069975e-003
2.253107199787333e-010	-2.511263e-003	6.060625e-003
2.263107199787333e-010	-2.823783e-003	6.051566e-003
2.273107199787333e-010	-3.132990e-003	6.043425e-003
2.283107199787333e-010	-3.438407e-003	6.037331e-003
2.293107199787333e-010	-3.739575e-003	6.034954e-003
2.303107199787333e-010	-4.036060e-003	6.038245e-003
2.313107199787333e-010	-4.327447e-003	6.048958e-003
2.323107199787333e-010	-4.613342e-003	6.068265e-003
2.333107199787333e-010	-4.893363e-003	6.096708e-003
2.343107199787333e-010	-5.167142e-003	6.134398e-003
2.353107199787333e-010	-5.434316e-003	6.181230e-003
2.363107199787333e-010	-5.694537e-003	6.236990e-003
2.373107199787333e-010	-5.947471e-003	6.301410e-003
2.383107199787333e-010	-6.192797e-003	6.374209e-003
2.393107199787333e-010	-6.430207e-003	6.455092e-003
2.403107199787333e-010	-6.659408e-003	6.543765e-003
2.413107199787333e-010	-6.880121e-003	6.639931e-003
2.423107199787333e-010	-7.092085e-003	6.743295e-003
2.433107199787333e-010	-7.295051e-003	6.853562e-003
2.443107199787333e-010	-7.488787e-003	6.970437e-003
2.453107199787332e-010	-7.673077e-003	7.093628e-003
2.463107199787332e-010	-7.847721e-003	7.222844e-003
2.473107199787332e-010	-8.012536e-003	7.357798e-003
2.483107199787332e-010	-8.167354e-003	7.498201e-003
2.493107199787332e-010	-8.312024e-003	7.643768e-003
2.503107199787332e-010	-8.446412e-003	7.794218e-003
2.513107199787332e-010	-8.570401e-003	7.949270e-003
2.523107199787332e-010	-8.683890e-003	8.108647e-003
2.533107199787332e-010	-8.786794e-003	8.272073e-003
2.543107199787332e-010	-8.879046e-003	8.439276e-003
2.553107199787332e-010	-8.960593e-003	8.609989e-003
2.563107199787332e-010	-9.031404e-003	8.783942e-003
2.573107199787332e-010	-9.091458e-003	8.960874e-003
2.583107199787332e-010	-9.140753e-003	9.140525e-003
2.593107199787332e-010	-9.179303e-003	9.322638e-003
2.603107199787332e-010	-9.207138e-003	9.506960e-003
2.613107199787332e-010	-9.224302e-003	9.693243e-003
2.623107199787332e-010	-9.230856e-003	9.881238e-003
2.633107199787332e-010	-9.226875e-003	1.007071e-002
2.643107199787332e-010	-9.212449e-003	1.026141e-002
2.653107199787332e-010	-9.187683e-003	1.045311e-002
2.663107199787332e-010	-9.152696e-003	1.064558e-002
2.673107199787332e-010	-9.107617e-003	1.083860e-002
2.693107199787332e-010	-8.987784e-003	1.122539e-002
2.713107199787332e-010	-8.829501e-003	1.161177e-002
2.733107199787332e-010	-8.634275e-003	1.199608e-002
2.763107199787331e-010	-8.275899e-003	1.256529e-002
2.793107199787331e-010	-7.844591e-003	1.312140e-002
2.823107199787331e-010	-7.347409e-003	1.365988e-002
2.853107199787331e-010	-6.791986e-003	1.417660e-002
2.883107199787331e-010	-6.186391e-003	1.466783e-002
2.913107199787331e-010	-5.539005e-003	1.513029e-002
2.943107199787331e-010	-4.858380e-003	1.556110e-002
2.973107199787331e-010	-4.153118e-003	1.595778e-002
3.003107199787331e-010	-3.431736e-003	1.631824e-002
3.017392914073045e-010	-3.082924e-003	1.647693e-002
3.031678628358759e-010	-2.735303e-003	1.662656e-002
3.045964342644473e-010	-2.388875e-003	1.676714e-002
3.060250056930188e-010	-2.043639e-003	1.689865e-002
3.074535771215902e-010	-1.699594e-003	1.702110e-002
3.088821485501616e-010	-1.356742e-003	1.713449e-002
3.103107199787330e-010	-1.015082e-003	1.723882e-002
3.123107199787330e-010	-5.462797e-004	1.736881e-002
3.133107199787330e-010	-3.153463e-004	1.742690e-002
3.143107199787330e-010	-8.702927e-005	1.748036e-002
3.153107199787330e-010	1.384532e-004	1.752919e-002
3.163107199787330e-010	3.608916e-004	1.757339e-002
3.173107199787330e-010	5.800847e-004	1.761295e-002
3.193107199787330e-010	1.007976e-003	1.767817e-002
3.213107199787330e-010	1.420699e-003	1.772488e-002
3.233107199787330e-010	1.816973e-003	1.775317e-002
3.253107199787330e-010	2.195673e-003	1.776312e-002
3.263107199787330e-010	2.378122e-003	1.776127e-002
3.283107199787330e-010	2.728683e-003	1.774399e-002
3.313107199787330e-010	3.217371e-003	1.768447e-002
3.343107199787329e-010	3.659892e-003	1.758521e-002
3.363107199787329e-010	3.928699e-003	1.749730e-002
3.383107199787329e-010	4.176365e-003	1.739227e-002
3.403107199787329e-010	4.401735e-003	1.726977e-002
3.423107199787329e-010	4.607183e-003	1.713118e-002
3.443107199787329e-010	4.792710e-003	1.697652e-002
3.463107199787329e-010	4.958314e-003	1.680577e-002
3.483107199787329e-010	5.103997e-003	1.661894e-002
3.503107199787329e-010	5.229758e-003	1.641603e-002
3.523107199787329e-010	5.335596e-003	1.619704e-002
3.553107199787329e-010	5.463814e-003	1.584077e-002
3.573107199787329e-010	5.528863e-003	1.558447e-002
3.593107199787329e-010	5.578741e-003	1.531335e-002
3.603107199787329e-010	5.598324e-003	1.517229e-002
3.613107199787328e-010	5.614521e-003	1.502759e-002
3.623107199787328e-010	5.627471e-003	1.487928e-002
3.633107199787328e-010	5.637321e-003	1.472737e-002
3.643107199787328e-010	5.644213e-003	1.457189e-002
3.653107199787328e-010	5.648297e-003	1.441285e-002
3.663107199787328e-010	5.649721e-003	1.425026e-002
3.673107199787328e-010	5.648636e-003	1.408416e-002
3.683107199787328e-010	5.645191e-003	1.391455e-002
3.693107199787328e-010	5.639537e-003	1.374146e-002
3.703107199787328e-010	5.631827e-003	1.356489e-002
3.713107199787328e-010	5.622212e-003	1.338487e-002
3.723107199787328e-010	5.610841e-003	1.320141e-002
3.733107199787328e-010	5.597867e-003	1.301453e-002
3.743107199787328e-010	5.583436e-003	1.282423e-002
3.753107199787328e-010	5.567697e-003	1.263054e-002
3.763107199787328e-010	5.550797e-003	1.243347e-002
3.773107199787328e-010	5.532880e-003	1.223304e-002
3.783107199787328e-010	5.514089e-003	1.202925e-002
3.793107199787328e-010	5.494563e-003	1.182212e-002
3.803107199787328e-010	5.474440e-003	1.161167e-002
3.813107199787328e-010	5.453855e-003	1.139790e-002
3.823107199787328e-010	5.432941e-003	1.118085e-002
3.833107199787328e-010	5.411824e-003	1.096050e-002
3.843107199787328e-010	5.390632e-003	1.073690e-002
3.853107199787328e-010	5.369484e-003	1.051004e-002
3.863107199787328e-010	5.348499e-003	1.027994e-002
3.873107199787328e-010	5.327791e-003	1.004663e-002
3.883107199787328e-010	5.307469e-003	9.810111e-003
3.893107199787328e-010	5.287638e-003	9.570408e-003
3.903107199787327e-010	5.268401e-003	9.327537e-003
3.913107199787327e-010	5.249850e-003	9.081519e-003
3.923107199787327e-010	5.232081e-003	8.832375e-003
3.933107199787327e-010	5.215177e-003	8.580123e-003
3.943107199787327e-010	5.199221e-003	8.324789e-003
3.953107199787327e-010	5.184290e-003	8.066395e-003
3.963107199787327e-010	5.170454e-003	7.804969e-003
3.973107199787327e-010	5.157781e-003	7.540536e-003
3.983107199787327e-010	5.146330e-003	7.273125e-003
3.993107199787327e-010	5.136156e-003	7.002768e-003
4.003107199787327e-010	5.127311e-003	6.729499e-003
4.013107199787327e-010	5.119838e-003	6.453350e-003
4.023107199787327e-010	5.113776e-003	6.174361e-003
4.033107199787327e-010	5.109158e-003	5.892573e-003
4.043107199787327e-010	5.106013e-003	5.608030e-003
4.053107199787327e-010	5.104363e-003	5.320776e-003
4.063107199787327e-010	5.104224e-003	5.030863e-003
4.073107199787327e-010	5.105608e-003	4.738345e-003
4.083107199787327e-010	5.108519e-003	4.443279e-003
4.093107199787327e-010	5.112958e-003	4.145730e-003
4.103107199787327e-010	5.118920e-003	3.845765e-003
4.113107199787327e-010	5.126394e-003	3.543458e-003
4.123107199787327e-010	5.135362e-003	3.238889e-003
4.133107199787327e-010	5.145804e-003	2.932145e-003
4.143107199787327e-010	5.157690e-003	2.623321e-003
4.153107199787327e-010	5.170990e-003	2.312523e-003
4.163107199787327e-010	5.185665e-003	1.999863e-003
4.173107199787327e-010	5.201670e-003	1.685468e-003
4.183107199787327e-010	5.218958e-003	1.369477e-003
4.193107199787326e-010	5.237473e-003	1.052043e-003
4.203107199787326e-010	5.257156e-003	7.333381e-004
4.213107199787326e-010	5.277942e-003	4.135513e-004
4.223107199787326e-010	5.299760e-003	9.289438e-005
4.233107199787326e-010	5.322534e-003	-2.283967e-004
4.243107199787326e-010	5.346181e-003	-5.500591e-004
4.253107199787326e-010	5.370615e-003	-8.718001e-004
4.263107199787326e-010	5.395743e-003	-1.193295e-003
4.273107199787326e-010	5.421467e-003	-1.514187e-003
4.283107199787326e-010	5.447687e-003	-1.834083e-003
4.293107199787326e-010	5.474303e-003	-2.152557e-003
4.303107199787326e-010	5.501225e-003	-2.469155e-003
4.313107199787326e-010	5.528385e-003	-2.783393e-003
4.323107199787326e-010	5.555773e-003	-3.094768e-003
4.333107199787326e-010	5.583545e-003	-3.402759e-003
4.343107199787326e-010	5.612143e-003	-3.706841e-003
4.353107199787326e-010	5.642382e-003	-4.006512e-003
4.363107199787326e-010	5.675524e-003	-4.301292e-003
4.373107199787326e-010	5.713180e-003	-4.590731e-003
4.383107199787326e-010	5.756954e-003	-4.874405e-003
4.393107199787326e-010	5.808048e-003	-5.151917e-003
4.403107199787326e-010	5.867141e-003	-5.422890e-003
4.413107199787326e-010	5.934523e-003	-5.686961e-003
4.423107199787326e-010	6.010193e-003	-5.943783e-003
4.433107199787326e-010	6.093964e-003	-6.193022e-003
4.443107199787326e-010	6.185582e-003	-6.434359e-003
4.453107199787326e-010	6.284776e-003	-6.667489e-003
4.463107199787326e-010	6.391259e-003	-6.892124e-003
4.473107199787326e-010	6.504741e-003	-7.107989e-003
4.483107199787325e-010	6.624931e-003	-7.314826e-003
4.493107199787325e-010	6.751538e-003	-7.512392e-003
4.503107199787325e-010	6.884272e-003	-7.700461e-003
4.513107199787325e-010	7.022842e-003	-7.878823e-003
4.523107199787325e-010	7.166962e-003	-8.047285e-003
4.533107199787325e-010	7.316347e-003	-8.205670e-003
4.543107199787325e-010	7.470713e-003	-8.353818e-003
4.553107199787325e-010	7.629778e-003	-8.491587e-003
4.563107199787325e-010	7.793264e-003	-8.618850e-003
4.573107199787325e-010	7.960895e-003	-8.735499e-003
4.583107199787325e-010	8.132396e-003	-8.841442e-003
4.593107199787325e-010	8.307496e-003	-8.936604e-003
4.603107199787325e-010	8.485926e-003	-9.020926e-003
4.613107199787325e-010	8.667421e-003	-9.094370e-003
4.623107199787325e-010	8.851718e-003	-9.156907e-003
4.633107199787325e-010	9.038558e-003	-9.208533e-003
4.643107199787325e-010	9.227686e-003	-9.249255e-003
4.653107199787325e-010	9.418847e-003	-9.279098e-003
4.663107199787325e-010	9.611793e-003	-9.298101e-003
4.673107199787325e-010	9.806277e-003	-9.306323e-003
4.683107199787325e-010	1.000206e-002	-9.303832e-003
4.693107199787325e-010	1.019890e-002	-9.290718e-003
4.703107199787325e-010	1.039657e-002	-9.267082e-003
4.713107199787325e-010	1.059483e-002	-9.233039e-003
4.723107199787325e-010	1.079347e-002	-9.188719e-003
4.733107199787325e-010	1.099225e-002	-9.134267e-003
4.753107199787325e-010	1.138940e-002	-8.995605e-003
4.773107199787324e-010	1.178461e-002	-8.818461e-003
4.803107199787324e-010	1.237027e-002	-8.484138e-003
4.833107199787324e-010	1.294288e-002	-8.072998e-003
4.863107199787324e-010	1.349774e-002	-7.591937e-003
4.893107199787324e-010	1.403058e-002	-7.048494e-003
4.923107199787324e-010	1.453757e-002	-6.450716e-003
4.953107199787324e-010	1.501529e-002	-5.807025e-003
4.983107199787324e-010	1.546073e-002	-5.126077e-003
5.013107199787324e-010	1.587132e-002	-4.416634e-003
5.043107199787324e-010	1.624487e-002	-3.687432e-003
5.073107199787323e-010	1.657959e-002	-2.947056e-003
5.085964342644466e-010	1.671094e-002	-2.626916e-003
