time	V(VCj1a,VCj2b)	V(VCj2a,VCj2b)
0.000000000000000e+000	0.000000e+000	0.000000e+000
1.170285695298015e-014	-3.998484e-010	3.998484e-010
2.340571390596030e-014	1.814119e-010	-1.814118e-010
3.510857085894045e-014	1.743781e-009	-1.743781e-009
4.681142781192060e-014	4.287258e-009	-4.287258e-009
5.851428476490076e-014	7.811845e-009	-7.811844e-009
7.021714171788090e-014	1.231754e-008	-1.231754e-008
8.191999867086103e-014	1.780434e-008	-1.780434e-008
1.638399973417221e-013	1.308903e-007	-1.308903e-007
3.276799946834441e-013	9.142055e-007	-9.142055e-007
6.553599893668882e-013	6.056428e-006	-6.056428e-006
1.310719978733776e-012	3.472159e-005	-3.472159e-005
2.310719978733776e-012	1.310811e-004	-1.310811e-004
3.310719978733776e-012	3.120544e-004	-3.120544e-004
4.310719978733776e-012	6.108621e-004	-6.108622e-004
5.310719978733776e-012	1.056006e-003	-1.056006e-003
6.310719978733775e-012	1.675586e-003	-1.675587e-003
7.310719978733775e-012	2.497237e-003	-2.497239e-003
8.310719978733775e-012	3.548073e-003	-3.548077e-003
9.310719978733775e-012	4.854624e-003	-4.854633e-003
1.031071997873377e-011	6.442786e-003	-6.442804e-003
1.131071997873377e-011	8.337765e-003	-8.337796e-003
1.231071997873377e-011	1.056402e-002	-1.056407e-002
1.331071997873377e-011	1.314521e-002	-1.314530e-002
1.431071997873377e-011	1.610417e-002	-1.610431e-002
1.531071997873377e-011	1.946280e-002	-1.946303e-002
1.631071997873377e-011	2.324210e-002	-2.324244e-002
1.731071997873377e-011	2.746205e-002	-2.746257e-002
1.831071997873377e-011	3.214163e-002	-3.214239e-002
1.931071997873377e-011	3.729873e-002	-3.729983e-002
2.031071997873377e-011	4.295012e-002	-4.295169e-002
2.131071997873377e-011	4.911144e-002	-4.911367e-002
2.231071997873377e-011	5.579713e-002	-5.580027e-002
2.331071997873377e-011	6.302040e-002	-6.302479e-002
2.431071997873377e-011	7.079317e-002	-7.079931e-002
2.531071997873377e-011	7.912606e-002	-7.913464e-002
2.631071997873377e-011	8.802829e-002	-8.804034e-002
2.731071997873377e-011	9.750762e-002	-9.752462e-002
2.831071997873377e-011	1.075702e-001	-1.075944e-001
2.931071997873377e-011	1.182205e-001	-1.182553e-001
3.031071997873377e-011	1.294609e-001	-1.295115e-001
3.131071997873378e-011	1.412911e-001	-1.413660e-001
3.231071997873378e-011	1.537077e-001	-1.538201e-001
3.331071997873378e-011	1.667023e-001	-1.668742e-001
3.431071997873379e-011	1.802591e-001	-1.805269e-001
3.531071997873379e-011	1.943501e-001	-1.947757e-001
3.631071997873379e-011	2.089273e-001	-2.096165e-001
3.731071997873379e-011	2.238932e-001	-2.250442e-001
3.831071997873380e-011	2.390695e-001	-2.410520e-001
3.931071997873380e-011	2.541902e-001	-2.576321e-001
4.031071997873380e-011	2.688644e-001	-2.747750e-001
4.131071997873381e-011	2.825400e-001	-2.924704e-001
4.231071997873381e-011	2.945805e-001	-3.107067e-001
4.331071997873381e-011	3.044579e-001	-3.294709e-001
4.431071997873382e-011	3.119915e-001	-3.487495e-001
4.531071997873382e-011	3.173957e-001	-3.685277e-001
4.631071997873382e-011	3.210751e-001	-3.887899e-001
4.731071997873382e-011	3.235059e-001	-4.095198e-001
4.831071997873383e-011	3.251717e-001	-4.307004e-001
4.931071997873383e-011	3.264223e-001	-4.523139e-001
5.031071997873383e-011	3.274538e-001	-4.743418e-001
5.131071997873384e-011	3.283722e-001	-4.967650e-001
5.231071997873384e-011	3.292312e-001	-5.195640e-001
5.331071997873384e-011	3.300575e-001	-5.427183e-001
5.431071997873385e-011	3.308636e-001	-5.662073e-001
5.531071997873385e-011	3.316552e-001	-5.900095e-001
5.631071997873385e-011	3.324345e-001	-6.141032e-001
5.731071997873385e-011	3.332023e-001	-6.384662e-001
5.831071997873385e-011	3.339587e-001	-6.630759e-001
5.931071997873385e-011	3.347033e-001	-6.879093e-001
6.031071997873384e-011	3.354360e-001	-7.129430e-001
6.231071997873384e-011	3.368644e-001	-7.635168e-001
6.431071997873383e-011	3.382420e-001	-8.146055e-001
6.631071997873382e-011	3.395679e-001	-8.660141e-001
6.831071997873382e-011	3.408414e-001	-9.175460e-001
7.131071997873381e-011	3.426534e-001	-9.946433e-001
7.431071997873380e-011	3.443488e-001	-1.070910e+000
7.731071997873379e-011	3.459293e-001	-1.145694e+000
8.031071997873378e-011	3.473980e-001	-1.218358e+000
8.331071997873377e-011	3.487580e-001	-1.288295e+000
8.631071997873375e-011	3.500125e-001	-1.354925e+000
8.931071997873374e-011	3.511648e-001	-1.417711e+000
9.173929140730516e-011	3.520214e-001	-1.465833e+000
9.416786283587658e-011	3.528186e-001	-1.510395e+000
9.659643426444801e-011	3.535565e-001	-1.551398e+000
9.902500569301943e-011	3.542350e-001	-1.588842e+000
1.014535771215908e-010	3.548542e-001	-1.622727e+000
1.038821485501623e-010	3.554140e-001	-1.653052e+000
1.063107199787337e-010	3.559145e-001	-1.679818e+000
1.078821485501623e-010	3.562107e-001	-1.694761e+000
1.094535771215908e-010	3.564849e-001	-1.707968e+000
1.110250056930194e-010	3.567370e-001	-1.719440e+000
1.125964342644480e-010	3.569672e-001	-1.729176e+000
1.141678628358765e-010	3.571753e-001	-1.737177e+000
1.157392914073051e-010	3.573613e-001	-1.743443e+000
1.173107199787337e-010	3.575253e-001	-1.747973e+000
1.193107199787337e-010	3.577042e-001	-1.751205e+000
1.203107199787337e-010	3.577807e-001	-1.751769e+000
1.213107199787337e-010	3.578488e-001	-1.751637e+000
1.233107199787336e-010	3.579596e-001	-1.749299e+000
1.263107199787336e-010	3.580626e-001	-1.740682e+000
1.293107199787336e-010	3.580905e-001	-1.726084e+000
1.323107199787336e-010	3.580431e-001	-1.705710e+000
1.338821485501622e-010	3.579887e-001	-1.692706e+000
1.354535771215907e-010	3.579134e-001	-1.678326e+000
1.370250056930193e-010	3.578170e-001	-1.662571e+000
1.385964342644479e-010	3.576996e-001	-1.645440e+000
1.401678628358764e-010	3.575612e-001	-1.626935e+000
1.417392914073050e-010	3.574018e-001	-1.607054e+000
1.433107199787336e-010	3.572215e-001	-1.585798e+000
1.457392914073050e-010	3.569040e-001	-1.550284e+000
1.481678628358764e-010	3.565295e-001	-1.512511e+000
1.505964342644478e-010	3.560978e-001	-1.472479e+000
1.530250056930193e-010	3.556091e-001	-1.430189e+000
1.554535771215907e-010	3.550633e-001	-1.385639e+000
1.578821485501621e-010	3.544604e-001	-1.338830e+000
1.603107199787335e-010	3.538004e-001	-1.289762e+000
1.624535771215907e-010	3.531678e-001	-1.245253e+000
1.645964342644478e-010	3.524731e-001	-1.199875e+000
1.667392914073049e-010	3.517164e-001	-1.153630e+000
1.688821485501621e-010	3.508976e-001	-1.106517e+000
1.710250056930192e-010	3.500167e-001	-1.058535e+000
1.731678628358763e-010	3.490738e-001	-1.009686e+000
1.753107199787335e-010	3.480688e-001	-9.599687e-001
1.763107199787335e-010	3.475688e-001	-9.367038e-001
1.773107199787335e-010	3.470510e-001	-9.133335e-001
1.783107199787335e-010	3.465148e-001	-8.898663e-001
1.793107199787335e-010	3.459596e-001	-8.663102e-001
1.803107199787334e-010	3.453845e-001	-8.426731e-001
1.813107199787334e-010	3.447886e-001	-8.189624e-001
1.823107199787334e-010	3.441712e-001	-7.951854e-001
1.843107199787334e-010	3.428671e-001	-7.474597e-001
1.853107199787334e-010	3.421783e-001	-7.235240e-001
1.863107199787334e-010	3.414633e-001	-6.995478e-001
1.873107199787334e-010	3.407210e-001	-6.755368e-001
1.883107199787334e-010	3.399496e-001	-6.514966e-001
1.893107199787334e-010	3.391477e-001	-6.274322e-001
1.903107199787334e-010	3.383133e-001	-6.033484e-001
1.913107199787334e-010	3.374449e-001	-5.792500e-001
1.923107199787334e-010	3.365400e-001	-5.551412e-001
1.933107199787334e-010	3.355966e-001	-5.310261e-001
1.943107199787334e-010	3.346119e-001	-5.069084e-001
1.953107199787334e-010	3.335832e-001	-4.827917e-001
1.963107199787334e-010	3.325075e-001	-4.586792e-001
1.973107199787334e-010	3.313813e-001	-4.345741e-001
1.983107199787334e-010	3.302008e-001	-4.104790e-001
1.993107199787334e-010	3.289618e-001	-3.863967e-001
2.003107199787334e-010	3.276595e-001	-3.623293e-001
2.013107199787334e-010	3.262886e-001	-3.382792e-001
2.023107199787334e-010	3.248433e-001	-3.142482e-001
2.033107199787334e-010	3.233168e-001	-2.902381e-001
2.043107199787334e-010	3.217014e-001	-2.662504e-001
2.053107199787334e-010	3.199886e-001	-2.422867e-001
2.063107199787334e-010	3.181686e-001	-2.183481e-001
2.073107199787334e-010	3.162302e-001	-1.944358e-001
2.083107199787334e-010	3.141607e-001	-1.705508e-001
2.093107199787333e-010	3.119454e-001	-1.466938e-001
2.103107199787333e-010	3.095674e-001	-1.228656e-001
2.113107199787333e-010	3.070074e-001	-9.906703e-002
2.123107199787333e-010	3.042428e-001	-7.529846e-002
2.133107199787333e-010	3.012481e-001	-5.156043e-002
2.143107199787333e-010	2.979933e-001	-2.785343e-002
2.153107199787333e-010	2.944440e-001	-4.177898e-003
2.163107199787333e-010	2.905610e-001	1.946574e-002
2.173107199787333e-010	2.862996e-001	4.307684e-002
2.183107199787333e-010	2.816088e-001	6.665459e-002
2.193107199787333e-010	2.764320e-001	9.019744e-002
2.203107199787333e-010	2.707065e-001	1.137024e-001
2.213107199787333e-010	2.643554e-001	1.371612e-001
2.223107199787333e-010	2.572908e-001	1.605544e-001
2.233107199787333e-010	2.494451e-001	1.838418e-001
2.243107199787333e-010	2.407666e-001	2.069369e-001
2.253107199787333e-010	2.311943e-001	2.296506e-001
2.263107199787333e-010	2.206671e-001	2.515963e-001
2.273107199787333e-010	2.091342e-001	2.720745e-001
2.283107199787333e-010	1.965564e-001	2.900565e-001
2.293107199787333e-010	1.829062e-001	3.044713e-001
2.303107199787333e-010	1.681679e-001	3.147661e-001
2.313107199787333e-010	1.523363e-001	3.212700e-001
2.323107199787333e-010	1.354156e-001	3.249710e-001
2.333107199787333e-010	1.174173e-001	3.269493e-001
2.343107199787333e-010	9.835686e-002	3.279965e-001
2.353107199787333e-010	7.825320e-002	3.285855e-001
2.363107199787333e-010	5.712963e-002	3.289772e-001
2.373107199787333e-010	3.501235e-002	3.292998e-001
2.383107199787333e-010	1.192920e-002	3.296105e-001
2.393107199787333e-010	-1.209049e-002	3.299345e-001
2.403107199787333e-010	-3.701610e-002	3.302820e-001
2.413107199787333e-010	-6.281587e-002	3.306564e-001
2.423107199787333e-010	-8.945696e-002	3.310578e-001
2.433107199787333e-010	-1.169055e-001	3.314849e-001
2.443107199787333e-010	-1.451267e-001	3.319356e-001
2.453107199787332e-010	-1.740848e-001	3.324077e-001
2.463107199787332e-010	-2.037434e-001	3.328990e-001
2.473107199787332e-010	-2.340653e-001	3.334070e-001
2.483107199787332e-010	-2.650124e-001	3.339297e-001
2.493107199787332e-010	-2.965463e-001	3.344647e-001
2.503107199787332e-010	-3.286276e-001	3.350102e-001
2.513107199787332e-010	-3.612170e-001	3.355641e-001
2.523107199787332e-010	-3.942741e-001	3.361246e-001
2.533107199787332e-010	-4.277587e-001	3.366902e-001
2.543107199787332e-010	-4.616298e-001	3.372592e-001
2.553107199787332e-010	-4.958466e-001	3.378302e-001
2.563107199787332e-010	-5.303679e-001	3.384018e-001
2.573107199787332e-010	-5.651522e-001	3.389730e-001
2.583107199787332e-010	-6.001583e-001	3.395425e-001
2.593107199787332e-010	-6.353447e-001	3.401093e-001
2.603107199787332e-010	-6.706702e-001	3.406726e-001
2.613107199787332e-010	-7.060937e-001	3.412315e-001
2.623107199787332e-010	-7.415741e-001	3.417853e-001
2.633107199787332e-010	-7.770707e-001	3.423334e-001
2.643107199787332e-010	-8.125430e-001	3.428750e-001
2.653107199787332e-010	-8.479510e-001	3.434098e-001
2.663107199787332e-010	-8.832550e-001	3.439372e-001
2.673107199787332e-010	-9.184159e-001	3.444568e-001
2.693107199787332e-010	-9.881539e-001	3.454713e-001
2.713107199787332e-010	-1.056863e+000	3.464509e-001
2.733107199787332e-010	-1.124251e+000	3.473937e-001
2.763107199787331e-010	-1.222248e+000	3.487366e-001
2.793107199787331e-010	-1.315762e+000	3.499915e-001
2.823107199787331e-010	-1.403984e+000	3.511574e-001
2.853107199787331e-010	-1.486190e+000	3.522341e-001
2.883107199787331e-010	-1.561744e+000	3.532225e-001
2.913107199787331e-010	-1.630108e+000	3.541242e-001
2.943107199787331e-010	-1.690839e+000	3.549406e-001
2.973107199787331e-010	-1.743594e+000	3.556738e-001
3.003107199787331e-010	-1.788130e+000	3.563259e-001
3.017392914073045e-010	-1.806393e+000	3.566080e-001
3.031678628358759e-010	-1.822754e+000	3.568729e-001
3.045964342644473e-010	-1.837213e+000	3.571206e-001
3.060250056930188e-010	-1.849771e+000	3.573513e-001
3.074535771215902e-010	-1.860427e+000	3.575648e-001
3.088821485501616e-010	-1.869181e+000	3.577612e-001
3.103107199787330e-010	-1.876034e+000	3.579405e-001
3.123107199787330e-010	-1.882535e+000	3.581649e-001
3.133107199787330e-010	-1.884438e+000	3.582652e-001
3.143107199787330e-010	-1.885456e+000	3.583576e-001
3.153107199787330e-010	-1.885598e+000	3.584423e-001
3.163107199787330e-010	-1.884875e+000	3.585193e-001
3.173107199787330e-010	-1.883300e+000	3.585888e-001
3.193107199787330e-010	-1.877643e+000	3.587048e-001
3.213107199787330e-010	-1.868735e+000	3.587911e-001
3.233107199787330e-010	-1.856699e+000	3.588477e-001
3.253107199787330e-010	-1.841662e+000	3.588753e-001
3.263107199787330e-010	-1.833062e+000	3.588781e-001
3.283107199787330e-010	-1.813787e+000	3.588624e-001
3.313107199787330e-010	-1.779969e+000	3.587854e-001
3.343107199787329e-010	-1.740727e+000	3.586447e-001
3.363107199787329e-010	-1.711819e+000	3.585157e-001
3.383107199787329e-010	-1.680902e+000	3.583583e-001
3.403107199787329e-010	-1.647750e+000	3.581737e-001
3.423107199787329e-010	-1.613305e+000	3.579598e-001
3.443107199787329e-010	-1.577569e+000	3.577165e-001
3.463107199787329e-010	-1.540541e+000	3.574439e-001
3.483107199787329e-010	-1.502222e+000	3.571419e-001
3.503107199787329e-010	-1.462610e+000	3.568105e-001
3.523107199787329e-010	-1.421707e+000	3.564497e-001
3.553107199787329e-010	-1.359510e+000	3.558480e-001
3.573107199787329e-010	-1.317294e+000	3.554060e-001
3.593107199787329e-010	-1.274621e+000	3.549303e-001
3.603107199787329e-010	-1.253148e+000	3.546795e-001
3.613107199787328e-010	-1.231603e+000	3.544196e-001
3.623107199787328e-010	-1.209998e+000	3.541505e-001
3.633107199787328e-010	-1.188346e+000	3.538723e-001
3.643107199787328e-010	-1.166659e+000	3.535845e-001
3.653107199787328e-010	-1.144948e+000	3.532871e-001
3.663107199787328e-010	-1.123223e+000	3.529795e-001
3.673107199787328e-010	-1.101495e+000	3.526617e-001
3.683107199787328e-010	-1.079772e+000	3.523335e-001
3.693107199787328e-010	-1.058065e+000	3.519945e-001
3.703107199787328e-010	-1.036382e+000	3.516445e-001
3.713107199787328e-010	-1.014730e+000	3.512830e-001
3.723107199787328e-010	-9.931158e-001	3.509097e-001
3.733107199787328e-010	-9.715471e-001	3.505243e-001
3.743107199787328e-010	-9.500294e-001	3.501264e-001
3.753107199787328e-010	-9.285684e-001	3.497155e-001
3.763107199787328e-010	-9.071688e-001	3.492913e-001
3.773107199787328e-010	-8.858350e-001	3.488534e-001
3.783107199787328e-010	-8.645709e-001	3.484010e-001
3.793107199787328e-010	-8.433797e-001	3.479337e-001
3.803107199787328e-010	-8.222640e-001	3.474510e-001
3.813107199787328e-010	-8.012260e-001	3.469523e-001
3.823107199787328e-010	-7.802675e-001	3.464368e-001
3.833107199787328e-010	-7.593895e-001	3.459040e-001
3.843107199787328e-010	-7.385929e-001	3.453529e-001
3.853107199787328e-010	-7.178776e-001	3.447828e-001
3.863107199787328e-010	-6.972434e-001	3.441931e-001
3.873107199787328e-010	-6.766898e-001	3.435825e-001
3.883107199787328e-010	-6.562154e-001	3.429501e-001
3.893107199787328e-010	-6.358187e-001	3.422949e-001
3.903107199787327e-010	-6.154978e-001	3.416157e-001
3.913107199787327e-010	-5.952502e-001	3.409112e-001
3.923107199787327e-010	-5.750733e-001	3.401800e-001
3.933107199787327e-010	-5.549640e-001	3.394207e-001
3.943107199787327e-010	-5.349188e-001	3.386317e-001
3.953107199787327e-010	-5.149341e-001	3.378113e-001
3.963107199787327e-010	-4.950059e-001	3.369573e-001
3.973107199787327e-010	-4.751299e-001	3.360679e-001
3.983107199787327e-010	-4.553016e-001	3.351407e-001
3.993107199787327e-010	-4.355161e-001	3.341732e-001
4.003107199787327e-010	-4.157687e-001	3.331626e-001
4.013107199787327e-010	-3.960541e-001	3.321058e-001
4.023107199787327e-010	-3.763669e-001	3.309994e-001
4.033107199787327e-010	-3.567019e-001	3.298397e-001
4.043107199787327e-010	-3.370534e-001	3.286225e-001
4.053107199787327e-010	-3.174157e-001	3.273430e-001
4.063107199787327e-010	-2.977830e-001	3.259962e-001
4.073107199787327e-010	-2.781495e-001	3.245760e-001
4.083107199787327e-010	-2.585094e-001	3.230758e-001
4.093107199787327e-010	-2.388568e-001	3.214882e-001
4.103107199787327e-010	-2.191858e-001	3.198046e-001
4.113107199787327e-010	-1.994906e-001	3.180156e-001
4.123107199787327e-010	-1.797654e-001	3.161099e-001
4.133107199787327e-010	-1.600044e-001	3.140752e-001
4.143107199787327e-010	-1.402021e-001	3.118970e-001
4.153107199787327e-010	-1.203528e-001	3.095586e-001
4.163107199787327e-010	-1.004512e-001	3.070412e-001
4.173107199787327e-010	-8.049202e-002	3.043226e-001
4.183107199787327e-010	-6.047019e-002	3.013776e-001
4.193107199787326e-010	-4.038087e-002	2.981768e-001
4.203107199787326e-010	-2.021942e-002	2.946866e-001
4.213107199787326e-010	1.862645e-005	2.908683e-001
4.223107199787326e-010	2.033734e-002	2.866778e-001
4.233107199787326e-010	4.074040e-002	2.820650e-001
4.243107199787326e-010	6.123114e-002	2.769737e-001
4.253107199787326e-010	8.181210e-002	2.713420e-001
4.263107199787326e-010	1.024847e-001	2.651025e-001
4.273107199787326e-010	1.232483e-001	2.581840e-001
4.283107199787326e-010	1.440985e-001	2.505128e-001
4.293107199787326e-010	1.650227e-001	2.420159e-001
4.303107199787326e-010	1.859925e-001	2.326234e-001
4.313107199787326e-010	2.069455e-001	2.222725e-001
4.323107199787326e-010	2.277196e-001	2.109048e-001
4.333107199787326e-010	2.479701e-001	1.984714e-001
4.343107199787326e-010	2.671419e-001	1.849466e-001
4.353107199787326e-010	2.844424e-001	1.703232e-001
4.363107199787326e-010	2.989396e-001	1.545975e-001
4.373107199787326e-010	3.099577e-001	1.377708e-001
4.383107199787326e-010	3.174989e-001	1.198531e-001
4.393107199787326e-010	3.222121e-001	1.008601e-001
4.403107199787326e-010	3.249511e-001	8.081107e-002
4.413107199787326e-010	3.264802e-001	5.972803e-002
4.423107199787326e-010	3.273846e-001	3.763647e-002
4.433107199787326e-010	3.280084e-001	1.456413e-002
4.443107199787326e-010	3.285148e-001	-9.459803e-003
4.453107199787326e-010	3.289825e-001	-3.440476e-002
4.463107199787326e-010	3.294470e-001	-6.023898e-002
4.473107199787326e-010	3.299237e-001	-8.692957e-002
4.483107199787325e-010	3.304184e-001	-1.144426e-001
4.493107199787325e-010	3.309325e-001	-1.427431e-001
4.503107199787325e-010	3.314649e-001	-1.717953e-001
4.513107199787325e-010	3.320141e-001	-2.015624e-001
4.523107199787325e-010	3.325778e-001	-2.320070e-001
4.533107199787325e-010	3.331540e-001	-2.630908e-001
4.543107199787325e-010	3.337404e-001	-2.947749e-001
4.553107199787325e-010	3.343351e-001	-3.270199e-001
4.563107199787325e-010	3.349360e-001	-3.597858e-001
4.573107199787325e-010	3.355414e-001	-3.930320e-001
4.583107199787325e-010	3.361496e-001	-4.267176e-001
4.593107199787325e-010	3.367592e-001	-4.608014e-001
4.603107199787325e-010	3.373686e-001	-4.952419e-001
4.613107199787325e-010	3.379767e-001	-5.299974e-001
4.623107199787325e-010	3.385823e-001	-5.650260e-001
4.633107199787325e-010	3.391844e-001	-6.002858e-001
4.643107199787325e-010	3.397820e-001	-6.357347e-001
4.653107199787325e-010	3.403743e-001	-6.713309e-001
4.663107199787325e-010	3.409606e-001	-7.070327e-001
4.673107199787325e-010	3.415402e-001	-7.427983e-001
4.683107199787325e-010	3.421124e-001	-7.785864e-001
4.693107199787325e-010	3.426768e-001	-8.143558e-001
4.703107199787325e-010	3.432330e-001	-8.500658e-001
4.713107199787325e-010	3.437804e-001	-8.856759e-001
4.723107199787325e-010	3.443189e-001	-9.211464e-001
4.733107199787325e-010	3.448480e-001	-9.564377e-001
4.753107199787325e-010	3.458772e-001	-1.026328e+000
4.773107199787324e-010	3.468666e-001	-1.095045e+000
4.803107199787324e-010	3.482736e-001	-1.195283e+000
4.833107199787324e-010	3.495862e-001	-1.291298e+000
4.863107199787324e-010	3.508042e-001	-1.382235e+000
4.893107199787324e-010	3.519280e-001	-1.467321e+000
4.923107199787324e-010	3.529588e-001	-1.545875e+000
4.953107199787324e-010	3.538984e-001	-1.617309e+000
4.983107199787324e-010	3.547489e-001	-1.681134e+000
5.013107199787324e-010	3.555126e-001	-1.736962e+000
