time	V(N001,VCj2b)	V(N002,VCj2b)
0.000000000000000e+000	0.000000e+000	0.000000e+000
1.170285695298015e-014	8.706435e-009	-8.706435e-009
2.340571390596030e-014	3.265738e-008	-3.265738e-008
3.510857085894045e-014	7.185284e-008	-7.185284e-008
4.681142781192060e-014	1.262928e-007	-1.262928e-007
5.851428476490076e-014	1.959773e-007	-1.959773e-007
7.021714171788090e-014	2.809063e-007	-2.809063e-007
8.191999867086103e-014	3.810798e-007	-3.810798e-007
1.638399973417221e-013	1.460456e-006	-1.460456e-006
3.276799946834441e-013	5.525907e-006	-5.525907e-006
6.553599893668882e-013	2.120345e-005	-2.120345e-005
1.310719978733776e-012	8.183123e-005	-8.183123e-005
2.310719978733776e-012	2.473866e-004	-2.473866e-004
3.310719978733776e-012	5.215048e-004	-5.215048e-004
4.310719978733776e-012	9.392739e-004	-9.392739e-004
5.310719978733776e-012	1.528868e-003	-1.528868e-003
6.310719978733775e-012	2.317993e-003	-2.317994e-003
7.310719978733775e-012	3.333841e-003	-3.333843e-003
8.310719978733775e-012	4.603029e-003	-4.603032e-003
9.310719978733775e-012	6.151540e-003	-6.151547e-003
1.031071997873377e-011	8.004674e-003	-8.004688e-003
1.131071997873377e-011	1.018699e-002	-1.018701e-002
1.231071997873377e-011	1.272225e-002	-1.272230e-002
1.331071997873377e-011	1.563339e-002	-1.563347e-002
1.431071997873377e-011	1.894244e-002	-1.894257e-002
1.531071997873377e-011	2.267051e-002	-2.267070e-002
1.631071997873377e-011	2.683769e-002	-2.683799e-002
1.731071997873377e-011	3.146310e-002	-3.146355e-002
1.831071997873377e-011	3.656476e-002	-3.656541e-002
1.931071997873377e-011	4.215959e-002	-4.216054e-002
2.031071997873377e-011	4.826335e-002	-4.826472e-002
2.131071997873377e-011	5.489066e-002	-5.489261e-002
2.231071997873377e-011	6.205489e-002	-6.205763e-002
2.331071997873377e-011	6.976816e-002	-6.977201e-002
2.431071997873377e-011	7.804130e-002	-7.804668e-002
2.531071997873377e-011	8.688383e-002	-8.689134e-002
2.631071997873377e-011	9.630382e-002	-9.631435e-002
2.731071997873377e-011	1.063079e-001	-1.063228e-001
2.831071997873377e-011	1.169013e-001	-1.169224e-001
2.931071997873377e-011	1.280873e-001	-1.281174e-001
3.031071997873377e-011	1.398673e-001	-1.399111e-001
3.131071997873378e-011	1.522406e-001	-1.523049e-001
3.231071997873378e-011	1.652031e-001	-1.652992e-001
3.331071997873378e-011	1.787468e-001	-1.788929e-001
3.431071997873379e-011	1.928572e-001	-1.930835e-001
3.531071997873379e-011	2.075098e-001	-2.078673e-001
3.631071997873379e-011	2.226634e-001	-2.232390e-001
3.731071997873379e-011	2.382400e-001	-2.391921e-001
3.831071997873380e-011	2.540940e-001	-2.557187e-001
3.931071997873380e-011	2.699941e-001	-2.728099e-001
4.031071997873380e-011	2.856013e-001	-2.904550e-001
4.131071997873381e-011	3.004311e-001	-3.086427e-001
4.231071997873381e-011	3.138799e-001	-3.273601e-001
4.331071997873381e-011	3.253728e-001	-3.465936e-001
4.431071997873382e-011	3.345856e-001	-3.663287e-001
4.531071997873382e-011	3.415786e-001	-3.865496e-001
4.631071997873382e-011	3.466934e-001	-4.072403e-001
4.731071997873382e-011	3.503846e-001	-4.283837e-001
4.831071997873383e-011	3.531363e-001	-4.499620e-001
4.931071997873383e-011	3.553581e-001	-4.719570e-001
5.031071997873383e-011	3.573075e-001	-4.943494e-001
5.131071997873384e-011	3.591229e-001	-5.171198e-001
5.231071997873384e-011	3.608767e-001	-5.402478e-001
5.331071997873384e-011	3.626044e-001	-5.637128e-001
5.431071997873385e-011	3.643229e-001	-5.874934e-001
5.531071997873385e-011	3.660393e-001	-6.115679e-001
5.631071997873385e-011	3.677562e-001	-6.359140e-001
5.731071997873385e-011	3.694738e-001	-6.605093e-001
5.831071997873385e-011	3.711914e-001	-6.853307e-001
5.931071997873385e-011	3.729081e-001	-7.103550e-001
6.031071997873384e-011	3.746225e-001	-7.355585e-001
6.231071997873384e-011	3.780396e-001	-7.864075e-001
6.431071997873383e-011	3.814334e-001	-8.376842e-001
6.631071997873382e-011	3.847951e-001	-8.891926e-001
6.831071997873382e-011	3.881168e-001	-9.407356e-001
7.131071997873381e-011	3.930083e-001	-1.017683e+000
7.431071997873380e-011	3.977705e-001	-1.093602e+000
7.731071997873379e-011	4.023826e-001	-1.167844e+000
8.031071997873378e-011	4.068257e-001	-1.239780e+000
8.331071997873377e-011	4.110821e-001	-1.308810e+000
8.631071997873375e-011	4.151356e-001	-1.374366e+000
8.931071997873374e-011	4.189714e-001	-1.435921e+000
9.173929140730516e-011	4.219210e-001	-1.482920e+000
9.416786283587658e-011	4.246984e-001	-1.526297e+000
9.659643426444801e-011	4.273038e-001	-1.566052e+000
9.902500569301943e-011	4.297372e-001	-1.602185e+000
1.014535771215908e-010	4.319985e-001	-1.634695e+000
1.038821485501623e-010	4.340877e-001	-1.663583e+000
1.063107199787337e-010	4.360049e-001	-1.688849e+000
1.078821485501623e-010	4.371396e-001	-1.702812e+000
1.094535771215908e-010	4.381933e-001	-1.715036e+000
1.110250056930194e-010	4.391660e-001	-1.725520e+000
1.125964342644480e-010	4.400577e-001	-1.734265e+000
1.141678628358765e-010	4.408685e-001	-1.741270e+000
1.157392914073051e-010	4.415982e-001	-1.746535e+000
1.173107199787337e-010	4.422470e-001	-1.750061e+000
1.193107199787337e-010	4.429510e-001	-1.752028e+000
1.203107199787337e-010	4.432526e-001	-1.751963e+000
1.213107199787337e-010	4.435202e-001	-1.751206e+000
1.233107199787336e-010	4.439543e-001	-1.747628e+000
1.263107199787336e-010	4.443507e-001	-1.737190e+000
1.293107199787336e-010	4.444415e-001	-1.720827e+000
1.323107199787336e-010	4.442263e-001	-1.698755e+000
1.338821485501622e-010	4.439914e-001	-1.684888e+000
1.354535771215907e-010	4.436733e-001	-1.669672e+000
1.370250056930193e-010	4.432719e-001	-1.653105e+000
1.385964342644479e-010	4.427873e-001	-1.635187e+000
1.401678628358764e-010	4.422195e-001	-1.615920e+000
1.417392914073050e-010	4.415684e-001	-1.595302e+000
1.433107199787336e-010	4.408342e-001	-1.573335e+000
1.457392914073050e-010	4.395369e-001	-1.536778e+000
1.481678628358764e-010	4.380446e-001	-1.498031e+000
1.505964342644478e-010	4.363575e-001	-1.457094e+000
1.530250056930193e-010	4.344754e-001	-1.413966e+000
1.554535771215907e-010	4.323983e-001	-1.368647e+000
1.578821485501621e-010	4.301263e-001	-1.321137e+000
1.603107199787335e-010	4.276594e-001	-1.271437e+000
1.624535771215907e-010	4.253254e-001	-1.226428e+000
1.645964342644478e-010	4.228360e-001	-1.180596e+000
1.667392914073049e-010	4.201911e-001	-1.133940e+000
1.688821485501621e-010	4.173907e-001	-1.086460e+000
1.710250056930192e-010	4.144348e-001	-1.038157e+000
1.731678628358763e-010	4.113234e-001	-9.890301e-001
1.753107199787335e-010	4.080566e-001	-9.390798e-001
1.763107199787335e-010	4.064739e-001	-9.157163e-001
1.773107199787335e-010	4.048549e-001	-8.922550e-001
1.783107199787335e-010	4.031994e-001	-8.687043e-001
1.793107199787335e-010	4.015070e-001	-8.450718e-001
1.803107199787334e-010	3.997767e-001	-8.213652e-001
1.813107199787334e-010	3.980084e-001	-7.975916e-001
1.823107199787334e-010	3.962010e-001	-7.737581e-001
1.843107199787334e-010	3.924665e-001	-7.259373e-001
1.853107199787334e-010	3.905377e-001	-7.019626e-001
1.863107199787334e-010	3.885666e-001	-6.779526e-001
1.873107199787334e-010	3.865522e-001	-6.539128e-001
1.883107199787334e-010	3.844931e-001	-6.298486e-001
1.893107199787334e-010	3.823881e-001	-6.057647e-001
1.903107199787334e-010	3.802359e-001	-5.816657e-001
1.913107199787334e-010	3.780348e-001	-5.575560e-001
1.923107199787334e-010	3.757830e-001	-5.334398e-001
1.933107199787334e-010	3.734786e-001	-5.093207e-001
1.943107199787334e-010	3.711194e-001	-4.852024e-001
1.953107199787334e-010	3.687030e-001	-4.610881e-001
1.963107199787334e-010	3.662269e-001	-4.369809e-001
1.973107199787334e-010	3.636878e-001	-4.128837e-001
1.983107199787334e-010	3.610826e-001	-3.887989e-001
1.993107199787334e-010	3.584074e-001	-3.647291e-001
2.003107199787334e-010	3.556582e-001	-3.406763e-001
2.013107199787334e-010	3.528302e-001	-3.166425e-001
2.023107199787334e-010	3.499181e-001	-2.926296e-001
2.033107199787334e-010	3.469158e-001	-2.686390e-001
2.043107199787334e-010	3.438165e-001	-2.446723e-001
2.053107199787334e-010	3.406123e-001	-2.207307e-001
2.063107199787334e-010	3.372946e-001	-1.968153e-001
2.073107199787334e-010	3.338531e-001	-1.729271e-001
2.083107199787334e-010	3.302762e-001	-1.490669e-001
2.093107199787333e-010	3.265505e-001	-1.252356e-001
2.103107199787333e-010	3.226607e-001	-1.014337e-001
2.113107199787333e-010	3.185889e-001	-7.766190e-002
2.123107199787333e-010	3.143148e-001	-5.392063e-002
2.133107199787333e-010	3.098145e-001	-3.021029e-002
2.143107199787333e-010	3.050607e-001	-6.531328e-003
2.153107199787333e-010	3.000218e-001	1.711580e-002
2.163107199787333e-010	2.946615e-001	4.073071e-002
2.173107199787333e-010	2.889381e-001	6.431291e-002
2.183107199787333e-010	2.828044e-001	8.786157e-002
2.193107199787333e-010	2.762076e-001	1.113755e-001
2.203107199787333e-010	2.690887e-001	1.348521e-001
2.213107199787333e-010	2.613784e-001	1.582855e-001
2.223107199787333e-010	2.529948e-001	1.816607e-001
2.233107199787333e-010	2.438629e-001	2.049463e-001
2.243107199787333e-010	2.339270e-001	2.280755e-001
2.253107199787333e-010	2.231331e-001	2.509030e-001
2.263107199787333e-010	2.114220e-001	2.731263e-001
2.273107199787333e-010	1.987406e-001	2.941781e-001
2.283107199787333e-010	1.850475e-001	3.131662e-001
2.293107199787333e-010	1.703129e-001	3.290311e-001
2.303107199787333e-010	1.545185e-001	3.409984e-001
2.313107199787333e-010	1.376572e-001	3.490402e-001
2.323107199787333e-010	1.197314e-001	3.538995e-001
2.333107199787333e-010	1.007517e-001	3.566473e-001
2.343107199787333e-010	8.073404e-002	3.582066e-001
2.353107199787333e-010	5.969776e-002	3.591771e-001
2.363107199787333e-010	3.766612e-002	3.598991e-001
2.373107199787333e-010	1.466595e-002	3.605496e-001
2.383107199787333e-010	-9.273884e-003	3.612103e-001
2.393107199787333e-010	-3.412308e-002	3.619163e-001
2.403107199787333e-010	-5.985003e-002	3.626819e-001
2.413107199787333e-010	-8.642200e-002	3.635114e-001
2.423107199787333e-010	-1.138053e-001	3.644045e-001
2.433107199787333e-010	-1.419650e-001	3.653589e-001
2.443107199787333e-010	-1.708657e-001	3.663714e-001
2.453107199787332e-010	-2.004709e-001	3.674385e-001
2.463107199787332e-010	-2.307434e-001	3.685563e-001
2.473107199787332e-010	-2.616452e-001	3.697211e-001
2.483107199787332e-010	-2.931378e-001	3.709292e-001
2.493107199787332e-010	-3.251822e-001	3.721769e-001
2.503107199787332e-010	-3.577387e-001	3.734608e-001
2.513107199787332e-010	-3.907672e-001	3.747775e-001
2.523107199787332e-010	-4.242273e-001	3.761238e-001
2.533107199787332e-010	-4.580782e-001	3.774965e-001
2.543107199787332e-010	-4.922789e-001	3.788927e-001
2.553107199787332e-010	-5.267883e-001	3.803095e-001
2.563107199787332e-010	-5.615649e-001	3.817443e-001
2.573107199787332e-010	-5.965674e-001	3.831944e-001
2.583107199787332e-010	-6.317544e-001	3.846575e-001
2.593107199787332e-010	-6.670846e-001	3.861311e-001
2.603107199787332e-010	-7.025168e-001	3.876131e-001
2.613107199787332e-010	-7.380099e-001	3.891014e-001
2.623107199787332e-010	-7.735231e-001	3.905939e-001
2.633107199787332e-010	-8.090160e-001	3.920887e-001
2.643107199787332e-010	-8.444484e-001	3.935840e-001
2.653107199787332e-010	-8.797806e-001	3.950781e-001
2.663107199787332e-010	-9.149732e-001	3.965693e-001
2.673107199787332e-010	-9.499877e-001	3.980561e-001
2.693107199787332e-010	-1.019330e+000	4.010105e-001
2.713107199787332e-010	-1.087509e+000	4.039299e-001
2.733107199787332e-010	-1.154238e+000	4.068044e-001
2.763107199787331e-010	-1.251020e+000	4.110115e-001
2.793107199787331e-010	-1.343063e+000	4.150687e-001
2.823107199787331e-010	-1.429584e+000	4.189516e-001
2.853107199787331e-010	-1.509885e+000	4.226393e-001
2.883107199787331e-010	-1.583358e+000	4.261134e-001
2.913107199787331e-010	-1.649493e+000	4.293588e-001
2.943107199787331e-010	-1.707878e+000	4.323623e-001
2.973107199787331e-010	-1.758198e+000	4.351131e-001
3.003107199787331e-010	-1.800241e+000	4.376028e-001
3.017392914073045e-010	-1.817297e+000	4.386955e-001
3.031678628358759e-010	-1.832455e+000	4.397258e-001
3.045964342644473e-010	-1.845716e+000	4.406938e-001
3.060250056930188e-010	-1.857078e+000	4.415995e-001
3.074535771215902e-010	-1.866541e+000	4.424428e-001
3.088821485501616e-010	-1.874107e+000	4.432238e-001
3.103107199787330e-010	-1.879775e+000	4.439425e-001
3.123107199787330e-010	-1.884649e+000	4.448415e-001
3.133107199787330e-010	-1.885751e+000	4.452447e-001
3.143107199787330e-010	-1.885976e+000	4.456168e-001
3.153107199787330e-010	-1.885334e+000	4.459580e-001
3.163107199787330e-010	-1.883839e+000	4.462683e-001
3.173107199787330e-010	-1.881501e+000	4.465479e-001
3.193107199787330e-010	-1.874356e+000	4.470146e-001
3.213107199787330e-010	-1.864013e+000	4.473588e-001
3.233107199787330e-010	-1.850596e+000	4.475812e-001
3.253107199787330e-010	-1.834240e+000	4.476826e-001
3.263107199787330e-010	-1.825004e+000	4.476883e-001
3.283107199787330e-010	-1.804506e+000	4.476099e-001
3.313107199787330e-010	-1.768982e+000	4.472706e-001
3.343107199787329e-010	-1.728194e+000	4.466685e-001
3.363107199787329e-010	-1.698345e+000	4.461228e-001
3.383107199787329e-010	-1.666561e+000	4.454629e-001
3.403107199787329e-010	-1.632618e+000	4.446883e-001
3.423107199787329e-010	-1.597452e+000	4.438037e-001
3.443107199787329e-010	-1.561064e+000	4.428092e-001
3.463107199787329e-010	-1.523453e+000	4.417048e-001
3.483107199787329e-010	-1.484620e+000	4.404905e-001
3.503107199787329e-010	-1.444564e+000	4.391663e-001
3.523107199787329e-010	-1.403286e+000	4.377322e-001
3.553107199787329e-010	-1.340633e+000	4.353814e-001
3.573107199787329e-010	-1.298184e+000	4.336795e-001
3.593107199787329e-010	-1.255331e+000	4.318697e-001
3.603107199787329e-010	-1.233787e+000	4.309244e-001
3.613107199787328e-010	-1.212183e+000	4.299520e-001
3.623107199787328e-010	-1.190530e+000	4.289522e-001
3.633107199787328e-010	-1.168841e+000	4.279253e-001
3.643107199787328e-010	-1.147127e+000	4.268712e-001
3.653107199787328e-010	-1.125399e+000	4.257895e-001
3.663107199787328e-010	-1.103667e+000	4.246801e-001
3.673107199787328e-010	-1.081940e+000	4.235431e-001
3.683107199787328e-010	-1.060228e+000	4.223781e-001
3.693107199787328e-010	-1.038538e+000	4.211848e-001
3.703107199787328e-010	-1.016879e+000	4.199632e-001
3.713107199787328e-010	-9.952586e-001	4.187131e-001
3.723107199787328e-010	-9.736825e-001	4.174341e-001
3.733107199787328e-010	-9.521572e-001	4.161260e-001
3.743107199787328e-010	-9.306881e-001	4.147885e-001
3.753107199787328e-010	-9.092803e-001	4.134212e-001
3.763107199787328e-010	-8.879382e-001	4.120238e-001
3.773107199787328e-010	-8.666655e-001	4.105958e-001
3.783107199787328e-010	-8.454656e-001	4.091370e-001
3.793107199787328e-010	-8.243413e-001	4.076468e-001
3.803107199787328e-010	-8.032946e-001	4.061247e-001
3.813107199787328e-010	-7.823275e-001	4.045701e-001
3.823107199787328e-010	-7.614411e-001	4.029827e-001
3.833107199787328e-010	-7.406361e-001	4.013617e-001
3.843107199787328e-010	-7.199127e-001	3.997064e-001
3.853107199787328e-010	-6.992708e-001	3.980162e-001
3.863107199787328e-010	-6.787094e-001	3.962904e-001
3.873107199787328e-010	-6.582277e-001	3.945279e-001
3.883107199787328e-010	-6.378241e-001	3.927281e-001
3.893107199787328e-010	-6.174966e-001	3.908899e-001
3.903107199787327e-010	-5.972428e-001	3.890125e-001
3.913107199787327e-010	-5.770601e-001	3.870942e-001
3.923107199787327e-010	-5.569455e-001	3.851343e-001
3.933107199787327e-010	-5.368955e-001	3.831313e-001
3.943107199787327e-010	-5.169065e-001	3.810837e-001
3.953107199787327e-010	-4.969745e-001	3.789900e-001
3.963107199787327e-010	-4.770952e-001	3.768485e-001
3.973107199787327e-010	-4.572642e-001	3.746573e-001
3.983107199787327e-010	-4.374767e-001	3.724141e-001
3.993107199787327e-010	-4.177277e-001	3.701169e-001
4.003107199787327e-010	-3.980122e-001	3.677632e-001
4.013107199787327e-010	-3.783247e-001	3.653500e-001
4.023107199787327e-010	-3.586600e-001	3.628743e-001
4.033107199787327e-010	-3.390124e-001	3.603327e-001
4.043107199787327e-010	-3.193761e-001	3.577214e-001
4.053107199787327e-010	-2.997455e-001	3.550363e-001
4.063107199787327e-010	-2.801148e-001	3.522723e-001
4.073107199787327e-010	-2.604780e-001	3.494242e-001
4.083107199787327e-010	-2.408293e-001	3.464861e-001
4.093107199787327e-010	-2.211628e-001	3.434510e-001
4.103107199787327e-010	-2.014726e-001	3.403112e-001
4.113107199787327e-010	-1.817530e-001	3.370578e-001
4.123107199787327e-010	-1.619981e-001	3.336809e-001
4.133107199787327e-010	-1.422024e-001	3.301689e-001
4.143107199787327e-010	-1.223603e-001	3.265087e-001
4.153107199787327e-010	-1.024663e-001	3.226850e-001
4.163107199787327e-010	-8.251524e-002	3.186803e-001
4.173107199787327e-010	-6.250191e-002	3.144746e-001
4.183107199787327e-010	-4.242146e-002	3.100444e-001
4.193107199787326e-010	-2.226922e-002	3.053628e-001
4.203107199787326e-010	-2.040714e-003	3.003987e-001
4.213107199787326e-010	1.826826e-002	2.951164e-001
4.223107199787326e-010	3.866157e-002	2.894750e-001
4.233107199787326e-010	5.914271e-002	2.834278e-001
4.243107199787326e-010	7.971478e-002	2.769226e-001
4.253107199787326e-010	1.003801e-001	2.699010e-001
4.263107199787326e-010	1.211403e-001	2.622993e-001
4.273107199787326e-010	1.419950e-001	2.540495e-001
4.283107199787326e-010	1.629409e-001	2.450808e-001
4.293107199787326e-010	1.839683e-001	2.353218e-001
4.303107199787326e-010	2.050551e-001	2.247035e-001
4.313107199787326e-010	2.261527e-001	2.131624e-001
4.323107199787326e-010	2.471418e-001	2.006411e-001
4.333107199787326e-010	2.677543e-001	1.870890e-001
4.343107199787326e-010	2.875219e-001	1.724734e-001
4.353107199787326e-010	3.057514e-001	1.567824e-001
4.363107199787326e-010	3.215674e-001	1.400140e-001
4.373107199787326e-010	3.341819e-001	1.221697e-001
4.383107199787326e-010	3.433171e-001	1.032580e-001
4.393107199787326e-010	3.493736e-001	8.329447e-002
4.403107199787326e-010	3.531468e-001	6.229904e-002
4.413107199787326e-010	3.554501e-001	4.029447e-002
4.423107199787326e-010	3.569435e-001	1.730661e-002
4.433107199787326e-010	3.580695e-001	-6.635967e-003
4.443107199787326e-010	3.590595e-001	-3.150299e-002
4.453107199787326e-010	3.600207e-001	-5.726289e-002
4.463107199787326e-010	3.610031e-001	-8.388291e-002
4.473107199787326e-010	3.620278e-001	-1.113292e-001
4.483107199787325e-010	3.631027e-001	-1.395669e-001
4.493107199787325e-010	3.642293e-001	-1.685602e-001
4.503107199787325e-010	3.654059e-001	-1.982725e-001
4.513107199787325e-010	3.666296e-001	-2.286664e-001
4.523107199787325e-010	3.678972e-001	-2.597037e-001
4.533107199787325e-010	3.692050e-001	-2.913454e-001
4.543107199787325e-010	3.705493e-001	-3.235522e-001
4.553107199787325e-010	3.719267e-001	-3.562841e-001
4.563107199787325e-010	3.733338e-001	-3.895006e-001
4.573107199787325e-010	3.747674e-001	-4.231608e-001
4.583107199787325e-010	3.762244e-001	-4.572234e-001
4.593107199787325e-010	3.777019e-001	-4.916470e-001
4.603107199787325e-010	3.791970e-001	-5.263897e-001
4.613107199787325e-010	3.807071e-001	-5.614099e-001
4.623107199787325e-010	3.822296e-001	-5.966654e-001
4.633107199787325e-010	3.837624e-001	-6.321144e-001
4.643107199787325e-010	3.853029e-001	-6.677147e-001
4.653107199787325e-010	3.868492e-001	-7.034247e-001
4.663107199787325e-010	3.883991e-001	-7.392026e-001
4.673107199787325e-010	3.899507e-001	-7.750070e-001
4.683107199787325e-010	3.915023e-001	-8.107967e-001
4.693107199787325e-010	3.930520e-001	-8.465309e-001
4.703107199787325e-010	3.945982e-001	-8.821691e-001
4.713107199787325e-010	3.961393e-001	-9.176713e-001
4.723107199787325e-010	3.976738e-001	-9.529982e-001
4.733107199787325e-010	3.992004e-001	-9.881107e-001
4.753107199787325e-010	4.022239e-001	-1.057540e+000
4.773107199787324e-010	4.051998e-001	-1.125662e+000
4.803107199787324e-010	4.095541e-001	-1.224769e+000
4.833107199787324e-010	4.137524e-001	-1.319384e+000
4.863107199787324e-010	4.177702e-001	-1.408677e+000
4.893107199787324e-010	4.215864e-001	-1.491901e+000
4.923107199787324e-010	4.251825e-001	-1.568402e+000
4.953107199787324e-010	4.285431e-001	-1.637622e+000
4.983107199787324e-010	4.316548e-001	-1.699100e+000
5.013107199787324e-010	4.345067e-001	-1.752480e+000
